FREQ-GHZ  MAG[Z1]  DB[S11]  MAG[Z1]  DB[S11]
           EXP312   EXP312   EXP314   EXP314
 
 0.10000   27.102  -10.528   27.696  -10.634
 0.11000   27.132  -10.540   27.849  -10.667
 0.12000   27.166  -10.553   28.017  -10.705
 0.13000   27.203  -10.567   28.199  -10.746
 0.14000   27.244  -10.582   28.395  -10.791
 0.15000   27.288  -10.600   28.605  -10.839
 0.16000   27.335  -10.618   28.829  -10.892
 0.17000   27.386  -10.638   29.067  -10.949
 0.18000   27.440  -10.660   29.318  -11.009
 0.19000   27.497  -10.683   29.582  -11.074
 0.20000   27.558  -10.707   29.860  -11.143
 0.21000   27.621  -10.733   30.149  -11.216
 0.22000   27.688  -10.760   30.451  -11.294
 0.23000   27.757  -10.788   30.765  -11.376
 0.24000   27.829  -10.818   31.091  -11.462
 0.25000   27.904  -10.850   31.428  -11.554
 0.26000   27.982  -10.883   31.777  -11.650
 0.27000   28.063  -10.917   32.136  -11.751
 0.28000   28.146  -10.952   32.505  -11.857
 0.29000   28.231  -10.989   32.885  -11.968
 0.30000   28.319  -11.027   33.274  -12.085
 0.31000   28.409  -11.067   33.672  -12.207
 0.32000   28.501  -11.108   34.079  -12.335
 0.33000   28.596  -11.150   34.495  -12.470
 0.34000   28.692  -11.193   34.919  -12.610
 0.35000   28.790  -11.238   35.350  -12.756
 0.36000   28.890  -11.284   35.788  -12.909
 0.37000   28.992  -11.331   36.232  -13.070
 0.38000   29.095  -11.380   36.682  -13.237
 0.39000   29.199  -11.429   37.138  -13.412
 0.40000   29.305  -11.480   37.598  -13.594
 0.41000   29.412  -11.532   38.062  -13.785
 0.42000   29.520  -11.585   38.529  -13.985
 0.43000   29.629  -11.639   38.999  -14.193
 0.44000   29.739  -11.694   39.471  -14.411
 0.45000   29.849  -11.750   39.943  -14.639
 0.46000   29.960  -11.807   40.416  -14.877
 0.47000   30.071  -11.864   40.888  -15.127
 0.48000   30.182  -11.923   41.358  -15.389
 0.49000   30.293  -11.982   41.826  -15.663
 0.50000   30.405  -12.042   42.290  -15.951
 0.51000   30.516  -12.103   42.749  -16.253
 0.52000   30.627  -12.164   43.202  -16.570
 0.53000   30.737  -12.226   43.649  -16.904
 0.54000   30.846  -12.288   44.087  -17.257
 0.55000   30.955  -12.351   44.516  -17.629
 0.56000   31.063  -12.414   44.935  -18.022
 0.57000   31.169  -12.477   45.342  -18.438
 0.58000   31.275  -12.540   45.736  -18.880
 0.59000   31.379  -12.603   46.116  -19.351
 0.60000   31.481  -12.666   46.480  -19.853
 0.61000   31.582  -12.729   46.828  -20.391
 0.62000   31.681  -12.791   47.158  -20.969
 0.63000   31.777  -12.853   47.470  -21.593
 0.64000   31.872  -12.915   47.761  -22.270
 0.65000   31.964  -12.976   48.031  -23.009
 0.66000   32.054  -13.036   48.278  -23.820
 0.67000   32.141  -13.095   48.503  -24.720
 0.68000   32.226  -13.153   48.703  -25.726
 0.69000   32.308  -13.209   48.878  -26.868
 0.70000   32.386  -13.265   49.028  -28.183
 0.71000   32.462  -13.318   49.152  -29.731
 0.72000   32.534  -13.371   49.248  -31.603
 0.73000   32.603  -13.421   49.318  -33.955
 0.74000   32.669  -13.470   49.360  -37.045
 0.75000   32.731  -13.516   49.374  -41.127
 0.76000   32.789  -13.560   49.361  -43.822
 0.77000   32.844  -13.602   49.320  -40.437
 0.78000   32.895  -13.641   49.251  -36.502
 0.79000   32.941  -13.678   49.155  -33.555
 0.80000   32.984  -13.712   49.033  -31.298
 0.81000   33.023  -13.743   48.885  -29.489
 0.82000   33.057  -13.771   48.711  -27.987
 0.83000   33.087  -13.797   48.512  -26.707
 0.84000   33.113  -13.819   48.290  -25.593
 0.85000   33.135  -13.837   48.044  -24.609
 0.86000   33.152  -13.853   47.777  -23.729
 0.87000   33.165  -13.865   47.488  -22.934
 0.88000   33.174  -13.873   47.180  -22.209
 0.89000   33.178  -13.879   46.853  -21.545
 0.90000   33.178  -13.880   46.509  -20.933
 0.91000   33.173  -13.879   46.148  -20.366
 0.92000   33.164  -13.874   45.773  -19.838
 0.93000   33.150  -13.865   45.383  -19.344
 0.94000   33.132  -13.853   44.981  -18.882
 0.95000   33.110  -13.838   44.567  -18.448
 0.96000   33.084  -13.819   44.144  -18.039
 0.97000   33.053  -13.798   43.711  -17.653
 0.98000   33.018  -13.773   43.271  -17.288
 0.99000   32.979  -13.745   42.824  -16.942
 1.00000   32.936  -13.714   42.371  -16.614
 1.01000   32.889  -13.680   41.914  -16.303
 1.02000   32.838  -13.644   41.454  -16.007
 1.03000   32.783  -13.605   40.991  -15.725
 1.04000   32.725  -13.564   40.527  -15.456
 1.05000   32.663  -13.520   40.062  -15.200
 1.06000   32.598  -13.474   39.597  -14.955
 1.07000   32.529  -13.426   39.134  -14.721
 1.08000   32.457  -13.377   38.673  -14.498
 1.09000   32.381  -13.325   38.214  -14.285
 1.10000   32.303  -13.272   37.758  -14.081
 1.11000   32.222  -13.217   37.307  -13.886
 1.12000   32.138  -13.161   36.861  -13.700
 1.13000   32.051  -13.104   36.420  -13.521
 1.14000   31.962  -13.046   35.985  -13.351
 1.15000   31.871  -12.987   35.556  -13.188
 1.16000   31.778  -12.927   35.135  -13.031
 1.17000   31.682  -12.867   34.721  -12.882
 1.18000   31.584  -12.806   34.314  -12.739
 1.19000   31.485  -12.745   33.917  -12.603
 1.20000   31.384  -12.683   33.528  -12.472
 1.21000   31.282  -12.621   33.149  -12.348
 1.22000   31.178  -12.559   32.779  -12.229
 1.23000   31.073  -12.497   32.419  -12.116
 1.24000   30.967  -12.435   32.070  -12.008
 1.25000   30.861  -12.374   31.732  -11.905
 1.26000   30.753  -12.313   31.404  -11.808
 1.27000   30.645  -12.252   31.088  -11.715
 1.28000   30.537  -12.191   30.783  -11.627
 1.29000   30.428  -12.131   30.491  -11.543
 1.30000   30.319  -12.072   30.210  -11.465
 1.31000   30.210  -12.013   29.943  -11.390
 1.32000   30.102  -11.955   29.687  -11.320
 1.33000   29.993  -11.898   29.445  -11.254
 1.34000   29.885  -11.841   29.216  -11.193
 1.35000   29.778  -11.786   29.000  -11.135
 1.36000   29.671  -11.731   28.798  -11.082
 1.37000   29.565  -11.678   28.610  -11.032
 1.38000   29.460  -11.625   28.436  -10.987
 1.39000   29.357  -11.573   28.275  -10.945
 1.40000   29.254  -11.523   28.129  -10.907
 1.41000   29.153  -11.473   27.998  -10.873
 1.42000   29.053  -11.425   27.881  -10.842
 1.43000   28.955  -11.378   27.779  -10.815
 1.44000   28.858  -11.332   27.691  -10.792
 1.45000   28.763  -11.287   27.618  -10.773
 1.46000   28.670  -11.244   27.560  -10.757
 1.47000   28.579  -11.202   27.517  -10.745
 1.48000   28.490  -11.161   27.489  -10.736
 1.49000   28.404  -11.121   27.477  -10.731
 1.50000   28.319  -11.083   27.479  -10.729
 1.51000   28.237  -11.046   27.496  -10.731
 1.52000   28.157  -11.010   27.528  -10.736
 1.53000   28.080  -10.975   27.575  -10.746
 1.54000   28.006  -10.942   27.637  -10.758
 1.55000   27.934  -10.911   27.713  -10.774
 1.56000   27.865  -10.880   27.804  -10.794
 1.57000   27.799  -10.852   27.910  -10.818
 1.58000   27.736  -10.824   28.031  -10.845
 1.59000   27.676  -10.798   28.166  -10.876
 1.60000   27.619  -10.773   28.314  -10.910
 1.61000   27.565  -10.750   28.477  -10.949
 1.62000   27.514  -10.728   28.654  -10.991
 1.63000   27.466  -10.707   28.845  -11.037
 1.64000   27.421  -10.688   29.049  -11.087
 1.65000   27.380  -10.671   29.266  -11.141
 1.66000   27.342  -10.654   29.496  -11.199
 1.67000   27.308  -10.639   29.739  -11.261
 1.68000   27.277  -10.626   29.995  -11.327
 1.69000   27.249  -10.614   30.263  -11.397
 1.70000   27.225  -10.603   30.543  -11.472
 1.71000   27.204  -10.594   30.834  -11.551
 1.72000   27.187  -10.587   31.138  -11.635
 1.73000   27.173  -10.580   31.452  -11.724
 1.74000   27.163  -10.575   31.777  -11.817
 1.75000   27.156  -10.572   32.113  -11.915
 1.76000   27.153  -10.570   32.458  -12.018
 1.77000   27.153  -10.569   32.814  -12.126
 1.78000   27.157  -10.570   33.179  -12.240
 1.79000   27.165  -10.572   33.553  -12.359
 1.80000   27.176  -10.576   33.935  -12.484
 1.81000   27.190  -10.581   34.326  -12.615
 1.82000   27.208  -10.588   34.725  -12.751
 1.83000   27.229  -10.596   35.131  -12.894
 1.84000   27.254  -10.605   35.543  -13.044
 1.85000   27.283  -10.616   35.962  -13.200
 1.86000   27.314  -10.628   36.387  -13.364
 1.87000   27.349  -10.642   36.816  -13.534
 1.88000   27.388  -10.657   37.250  -13.713
 1.89000   27.429  -10.673   37.689  -13.899
 1.90000   27.474  -10.691   38.130  -14.093
 1.91000   27.522  -10.710   38.574  -14.297
 1.92000   27.573  -10.731   39.019  -14.510
 1.93000   27.628  -10.753   39.466  -14.732
 1.94000   27.685  -10.776   39.913  -14.964
 1.95000   27.745  -10.801   40.359  -15.208
 1.96000   27.808  -10.827   40.804  -15.462
 1.97000   27.874  -10.855   41.247  -15.729
 1.98000   27.943  -10.884   41.686  -16.009
 1.99000   28.015  -10.914   42.121  -16.303
 2.00000   28.089  -10.946   42.550  -16.611
 2.01000   28.165  -10.979   42.973  -16.935
 2.02000   28.244  -11.013   43.389  -17.277
 2.03000   28.326  -11.049   43.797  -17.636
 2.04000   28.409  -11.085   44.194  -18.016
 2.05000   28.495  -11.123   44.581  -18.417
 2.06000   28.583  -11.163   44.956  -18.843
 2.07000   28.673  -11.204   45.319  -19.294
 2.08000   28.764  -11.245   45.667  -19.775
 2.09000   28.858  -11.288   45.999  -20.288
 2.10000   28.953  -11.333   46.316  -20.836
 2.11000   29.050  -11.378   46.615  -21.426
 2.12000   29.148  -11.425   46.895  -22.061
 2.13000   29.248  -11.472   47.156  -22.750
 2.14000   29.348  -11.521   47.396  -23.500
 2.15000   29.450  -11.571   47.615  -24.320
 2.16000   29.553  -11.622   47.812  -25.226
 2.17000   29.656  -11.673   47.986  -26.231
 2.18000   29.761  -11.726   48.136  -27.356
 2.19000   29.865  -11.780   48.262  -28.626
 2.20000   29.971  -11.834   48.362  -30.066
 2.21000   30.076  -11.889   48.438  -31.695
 2.22000   30.182  -11.945   48.488  -33.477
 2.23000   30.288  -12.002   48.513  -35.205
 2.24000   30.393  -12.059   48.511  -36.291
 2.25000   30.499  -12.117   48.484  -36.041
 2.26000   30.604  -12.175   48.431  -34.642
 2.27000   30.708  -12.234   48.353  -32.855
 2.28000   30.812  -12.293   48.250  -31.120
 2.29000   30.915  -12.353   48.122  -29.562
 2.30000   31.017  -12.412   47.970  -28.187
 2.31000   31.118  -12.472   47.794  -26.975
 2.32000   31.218  -12.531   47.596  -25.898
 2.33000   31.316  -12.591   47.376  -24.934
 2.34000   31.413  -12.650   47.135  -24.063
 2.35000   31.508  -12.710   46.874  -23.273
 2.36000   31.601  -12.768   46.593  -22.549
 2.37000   31.692  -12.826   46.295  -21.884
 2.38000   31.781  -12.884   45.979  -21.269
 2.39000   31.868  -12.941   45.647  -20.698
 2.40000   31.952  -12.997   45.301  -20.166
 2.41000   32.034  -13.052   44.941  -19.668
 2.42000   32.113  -13.106   44.569  -19.202
 2.43000   32.190  -13.159   44.185  -18.764
 2.44000   32.264  -13.210   43.790  -18.350
 2.45000   32.334  -13.260   43.387  -17.960
 2.46000   32.402  -13.308   42.975  -17.591
 2.47000   32.466  -13.354   42.557  -17.242
 2.48000   32.527  -13.398   42.132  -16.910
 2.49000   32.584  -13.441   41.703  -16.595
 2.50000   32.638  -13.481   41.270  -16.295
 2.51000   32.688  -13.519   40.834  -16.010
 2.52000   32.735  -13.555   40.395  -15.738
 2.53000   32.778  -13.588   39.956  -15.478
 2.54000   32.817  -13.618   39.516  -15.231
 2.55000   32.852  -13.646   39.077  -14.994
 2.56000   32.883  -13.671   38.639  -14.769
 2.57000   32.909  -13.693   38.204  -14.553
 2.58000   32.932  -13.712   37.771  -14.347
 2.59000   32.951  -13.728   37.341  -14.149
 2.60000   32.966  -13.741   36.916  -13.961
 2.61000   32.976  -13.750   36.496  -13.780
 2.62000   32.982  -13.757   36.081  -13.607
 2.63000   32.984  -13.760   35.671  -13.442
 2.64000   32.982  -13.760   35.268  -13.284
 2.65000   32.975  -13.757   34.873  -13.133
 2.66000   32.965  -13.751   34.484  -12.988
 2.67000   32.950  -13.741   34.103  -12.850
 2.68000   32.931  -13.729   33.731  -12.719
 2.69000   32.908  -13.713   33.368  -12.593
 2.70000   32.881  -13.694   33.013  -12.472
 2.71000   32.849  -13.672   32.668  -12.358
 2.72000   32.814  -13.648   32.333  -12.249
 2.73000   32.775  -13.621   32.008  -12.145
 2.74000   32.733  -13.590   31.694  -12.046
 2.75000   32.686  -13.558   31.390  -11.952
 2.76000   32.636  -13.523   31.098  -11.863
 2.77000   32.582  -13.485   30.817  -11.779
 2.78000   32.525  -13.445   30.548  -11.699
 2.79000   32.464  -13.403   30.291  -11.624
 2.80000   32.400  -13.359   30.046  -11.553
 2.81000   32.333  -13.314   29.814  -11.487
 2.82000   32.263  -13.266   29.594  -11.424
 2.83000   32.190  -13.217   29.387  -11.366
 2.84000   32.114  -13.167   29.193  -11.312
 2.85000   32.035  -13.115   29.013  -11.263
 2.86000   31.954  -13.062   28.846  -11.217
 2.87000   31.870  -13.007   28.692  -11.174
 2.88000   31.784  -12.952   28.553  -11.136
 2.89000   31.696  -12.896   28.427  -11.102
 2.90000   31.606  -12.839   28.316  -11.071
 2.91000   31.514  -12.782   28.218  -11.044
 2.92000   31.420  -12.724   28.135  -11.021
 2.93000   31.325  -12.666   28.066  -11.002
 2.94000   31.228  -12.608   28.012  -10.986
 2.95000   31.130  -12.549   27.972  -10.974
 2.96000   31.030  -12.491   27.946  -10.965
 2.97000   30.930  -12.432   27.935  -10.961
 2.98000   30.829  -12.374   27.939  -10.959
 2.99000   30.727  -12.315   27.957  -10.962
 3.00000   30.624  -12.257   27.990  -10.968

